time	V(vo)	V(n009)
0.000000000000000e+00	-2.289567e-02	1.905424e-01
1.135672389418474e-05	-9.521405e-02	1.206581e-01
3.407017168255422e-05	-2.376577e-01	-1.959974e-02
7.407017168237218e-05	-4.759297e-01	-2.634874e-01
1.140701716821901e-04	-6.871725e-01	-4.937488e-01
1.540701716820081e-04	-8.552579e-01	-6.957693e-01
1.940701716818261e-04	-9.739044e-01	-8.607891e-01
2.190624746352121e-04	-1.018153e+00	-9.388844e-01
2.361853458228147e-04	-1.029869e+00	-9.730940e-01
2.573731261152901e-04	-1.025357e+00	-9.921680e-01
2.770041409809743e-04	-1.002267e+00	-9.910953e-01
3.088900499506053e-04	-9.278982e-01	-9.627259e-01
3.488900499504233e-04	-7.857020e-01	-8.890493e-01
3.888900499502412e-04	-5.959716e-01	-7.617680e-01
4.288900499500592e-04	-3.693434e-01	-5.786148e-01
4.688900499498772e-04	-1.220072e-01	-3.542185e-01
5.088900499496951e-04	1.291289e-01	-1.072747e-01
5.488900499495131e-04	3.678487e-01	1.441737e-01
5.888900499493310e-04	5.797768e-01	3.830439e-01
6.288900499491490e-04	7.532353e-01	5.941018e-01
6.688900499489669e-04	8.796182e-01	7.648753e-01
7.088900499487849e-04	9.618633e-01	8.948129e-01
7.245874464811841e-04	9.786792e-01	9.307450e-01
7.430342618142127e-04	9.832096e-01	9.576834e-01
7.624095670299980e-04	9.748501e-01	9.725148e-01
7.851988297877810e-04	9.455566e-01	9.698145e-01
8.221350566315344e-04	8.608190e-01	9.265014e-01
8.621350566313524e-04	7.248123e-01	8.326302e-01
9.021350566311703e-04	5.446833e-01	6.905436e-01
9.421350566309883e-04	3.283810e-01	5.064304e-01
9.821350566308062e-04	8.772737e-02	2.898186e-01
1.022135056630624e-03	-1.628384e-01	5.251980e-02
1.062135056630442e-03	-4.071054e-01	-1.916371e-01
1.102135056630260e-03	-6.283441e-01	-4.274870e-01
1.142135056630078e-03	-8.107501e-01	-6.395358e-01
1.182135056629896e-03	-9.439571e-01	-8.157963e-01
1.214553807501240e-03	-1.012546e+00	-9.271163e-01
1.230585265066253e-03	-1.029269e+00	-9.658561e-01
1.245871220938444e-03	-1.031842e+00	-9.868103e-01
1.263465118368501e-03	-1.021006e+00	-9.943959e-01
1.286915412401335e-03	-9.831861e-01	-9.850720e-01
1.324902633621061e-03	-8.769671e-01	-9.384809e-01
1.364902633620879e-03	-7.154617e-01	-8.445590e-01
1.404902633620697e-03	-5.091373e-01	-6.941584e-01
1.444902633620515e-03	-2.721972e-01	-4.927256e-01
1.484902633620333e-03	-2.130932e-02	-2.572412e-01
1.524902633620151e-03	2.267351e-01	-6.405557e-03
1.564902633619969e-03	4.563335e-01	2.419803e-01
1.604902633619787e-03	6.541060e-01	4.714204e-01
1.644902633619605e-03	8.095808e-01	6.676776e-01
1.684902633619423e-03	9.186016e-01	8.227489e-01
1.715606501102140e-03	9.696734e-01	9.108996e-01
1.731893745335000e-03	9.820885e-01	9.431717e-01
1.748195813476627e-03	9.830347e-01	9.638440e-01
1.764329393023178e-03	9.735724e-01	9.736121e-01
1.788320657253539e-03	9.395692e-01	9.674761e-01
1.827166268224545e-03	8.456437e-01	9.168580e-01
1.867166268224363e-03	7.042042e-01	8.171346e-01
1.907166268224181e-03	5.189714e-01	6.693136e-01
1.947166268223999e-03	2.988998e-01	4.805413e-01
1.987166268223817e-03	5.616445e-02	2.606355e-01
2.027166268223635e-03	-1.945212e-01	2.168148e-02
2.067166268223453e-03	-4.368057e-01	-2.222800e-01
2.107166268223271e-03	-6.539900e-01	-4.559802e-01
2.147166268223089e-03	-8.304903e-01	-6.639658e-01
2.187166268222906e-03	-9.576483e-01	-8.355952e-01
2.216463958209847e-03	-1.015396e+00	-9.324846e-01
2.232959107476784e-03	-1.030593e+00	-9.701561e-01
2.248014494117268e-03	-1.031944e+00	-9.892197e-01
2.264261991896888e-03	-1.020776e+00	-9.949678e-01
2.288211077475122e-03	-9.805738e-01	-9.842714e-01
2.326989817919678e-03	-8.698528e-01	-9.350032e-01
2.366989817919496e-03	-7.059469e-01	-8.383585e-01
2.406989817919314e-03	-4.976305e-01	-6.849469e-01
2.446989817919132e-03	-2.595381e-01	-4.812779e-01
2.486989817918950e-03	-8.382875e-03	-2.445441e-01
2.526989817918768e-03	2.390732e-01	6.596749e-03
2.566989817918586e-03	4.673227e-01	2.543884e-01
2.606989817918404e-03	6.631249e-01	4.824280e-01
2.646989817918222e-03	8.161671e-01	6.766207e-01
2.686989817918040e-03	9.229071e-01	8.295926e-01
2.716397227046752e-03	9.703175e-01	9.125589e-01
2.732876210240764e-03	9.823610e-01	9.446959e-01
2.747913332863394e-03	9.830492e-01	9.635755e-01
2.764224386931247e-03	9.734215e-01	9.733884e-01
2.788149939166651e-03	9.396851e-01	9.674487e-01
2.826891365355522e-03	8.462746e-01	9.172426e-01
2.866891365355340e-03	7.051316e-01	8.178386e-01
2.906891365355158e-03	5.201758e-01	6.703293e-01
2.946891365354976e-03	3.003068e-01	4.818090e-01
2.986891365354793e-03	5.768057e-02	2.620796e-01
3.026891365354611e-03	-1.930038e-01	2.321157e-02
3.066891365354429e-03	-4.354020e-01	-2.207656e-01
3.106891365354247e-03	-6.528128e-01	-4.545885e-01
3.146891365354065e-03	-8.296395e-01	-6.628008e-01
3.186891365353883e-03	-9.571292e-01	-8.346861e-01
3.216359985905637e-03	-1.015446e+00	-9.323512e-01
3.232829946159921e-03	-1.030725e+00	-9.700910e-01
3.247918697810270e-03	-1.032138e+00	-9.892928e-01
3.264226381271662e-03	-1.020983e+00	-9.951379e-01
3.288153181586040e-03	-9.808874e-01	-9.845116e-01
3.326896586793193e-03	-8.703663e-01	-9.353564e-01
3.366896586793011e-03	-7.065639e-01	-8.388109e-01
3.406896586792829e-03	-4.983324e-01	-6.855125e-01
3.446896586792647e-03	-2.602873e-01	-4.819315e-01
3.486896586792465e-03	-9.139664e-03	-2.452475e-01
3.526896586792283e-03	2.383468e-01	5.883960e-03
3.566896586792101e-03	4.666604e-01	2.537057e-01
3.606896586791919e-03	6.625542e-01	4.818111e-01
3.646896586791737e-03	8.157082e-01	6.760989e-01
3.686896586791555e-03	9.225527e-01	8.291670e-01
3.716361961131120e-03	9.701257e-01	9.123638e-01
3.732832399969688e-03	9.821879e-01	9.445090e-01
3.747918413247397e-03	9.828888e-01	9.634605e-01
3.764226275489779e-03	9.732686e-01	9.732770e-01
3.788153009605111e-03	9.395285e-01	9.673346e-01
3.826896309843786e-03	8.461103e-01	9.171224e-01
3.866896309843604e-03	7.049633e-01	8.177138e-01
3.906896309843422e-03	5.200036e-01	6.701999e-01
3.946896309843240e-03	3.001321e-01	4.816760e-01
3.986896309843058e-03	5.750497e-02	2.619444e-01
4.026896309842876e-03	-1.931785e-01	2.307566e-02
4.066896309842694e-03	-4.355736e-01	-2.209004e-01
4.106896309842512e-03	-6.529793e-01	-4.547203e-01
4.146896309842329e-03	-8.297989e-01	-6.629277e-01
4.186896309842147e-03	-9.572812e-01	-8.348075e-01
4.216361856363982e-03	-1.015587e+00	-9.324606e-01
4.232832269818410e-03	-1.030864e+00	-9.702068e-01
4.247918428341713e-03	-1.032275e+00	-9.894156e-01
4.264226281100569e-03	-1.021119e+00	-9.952706e-01
4.288153018726870e-03	-9.810228e-01	-9.846503e-01
4.326896324533092e-03	-8.705003e-01	-9.354900e-01
4.366896324532910e-03	-7.066961e-01	-8.389294e-01
4.406896324532728e-03	-4.984627e-01	-6.856170e-01
4.446896324532545e-03	-2.604154e-01	-4.820287e-01
4.486896324532363e-03	-9.265533e-03	-2.453414e-01
4.526896324532181e-03	2.382232e-01	5.792233e-03
4.566896324531999e-03	4.665391e-01	2.536159e-01
4.606896324531817e-03	6.624352e-01	4.817230e-01
4.646896324531635e-03	8.155913e-01	6.760126e-01
4.686896324531453e-03	9.224378e-01	8.290824e-01
4.716361861920593e-03	9.700125e-01	9.122809e-01
4.732832276721499e-03	9.820755e-01	9.444265e-01
4.747918427541187e-03	9.827768e-01	9.633787e-01
4.764226280802752e-03	9.731572e-01	9.731956e-01
4.788153018242536e-03	9.394178e-01	9.672539e-01
4.826896323752550e-03	8.460006e-01	9.170424e-01
4.866896323752368e-03	7.048547e-01	8.176346e-01
4.906896323752186e-03	5.198959e-01	6.701214e-01
4.946896323752004e-03	3.000251e-01	4.815982e-01
4.986896323751822e-03	5.739866e-02	2.618672e-01
5.026896323751640e-03	-1.932841e-01	2.299907e-02
5.066896323751457e-03	-4.356785e-01	-2.209764e-01
5.106896323751275e-03	-6.530833e-01	-4.547957e-01
5.146896323751093e-03	-8.299021e-01	-6.630026e-01
5.186896323750911e-03	-9.573835e-01	-8.348817e-01
5.216361861624996e-03	-1.015688e+00	-9.325362e-01
5.232832276353960e-03	-1.030965e+00	-9.702874e-01
5.247918427583098e-03	-1.032376e+00	-9.895042e-01
5.264226280818463e-03	-1.021219e+00	-9.953665e-01
5.288153018268460e-03	-9.811219e-01	-9.847504e-01
5.326896323794461e-03	-8.705980e-01	-9.355862e-01
5.366896323794279e-03	-7.067922e-01	-8.390145e-01
5.406896323794097e-03	-4.985572e-01	-6.856918e-01
5.446896323793915e-03	-2.605082e-01	-4.820980e-01
5.486896323793733e-03	-9.356681e-03	-2.454081e-01
5.526896323793551e-03	2.381337e-01	5.727062e-03
5.566896323793369e-03	4.664512e-01	2.535520e-01
5.606896323793187e-03	6.623487e-01	4.816603e-01
5.646896323793005e-03	8.155062e-01	6.759510e-01
5.686896323792823e-03	9.223540e-01	8.290218e-01
5.716361861641150e-03	9.699295e-01	9.122210e-01
5.732832276374555e-03	9.819929e-01	9.443670e-01
5.747918427581045e-03	9.826947e-01	9.633194e-01
5.764226280817741e-03	9.730755e-01	9.731367e-01
5.788153018266851e-03	9.393366e-01	9.671953e-01
5.826896323791964e-03	8.459202e-01	9.169846e-01
5.866896323791781e-03	7.047750e-01	8.175772e-01
5.906896323791599e-03	5.198168e-01	6.700646e-01
5.946896323791417e-03	2.999466e-01	4.815420e-01
5.986896323791235e-03	5.732071e-02	2.618114e-01
6.026896323791053e-03	-1.933615e-01	2.294373e-02
6.066896323790871e-03	-4.357554e-01	-2.210313e-01
6.106896323790689e-03	-6.531596e-01	-4.548502e-01
6.146896323790507e-03	-8.299778e-01	-6.630566e-01
6.186896323790325e-03	-9.574584e-01	-8.349354e-01
6.216361861639985e-03	-1.015763e+00	-9.325909e-01
6.232832276372502e-03	-1.031039e+00	-9.703456e-01
6.247918427581212e-03	-1.032449e+00	-9.895682e-01
6.264226280817908e-03	-1.021292e+00	-9.954359e-01
6.288153018267462e-03	-9.811946e-01	-9.848229e-01
6.326896323793019e-03	-8.706696e-01	-9.356558e-01
6.366896323792837e-03	-7.068627e-01	-8.390760e-01
6.406896323792655e-03	-4.986265e-01	-6.857458e-01
6.446896323792473e-03	-2.605763e-01	-4.821481e-01
6.486896323792291e-03	-9.423554e-03	-2.454564e-01
6.526896323792108e-03	2.380680e-01	5.679927e-03
6.566896323791926e-03	4.663867e-01	2.535058e-01
6.606896323791744e-03	6.622853e-01	4.816150e-01
6.646896323791562e-03	8.154438e-01	6.759065e-01
6.686896323791380e-03	9.222925e-01	8.289780e-01
6.716361861641040e-03	9.698686e-01	9.121777e-01
6.732832276374001e-03	9.819323e-01	9.443240e-01
6.747918427580935e-03	9.826344e-01	9.632766e-01
6.764226280818075e-03	9.730155e-01	9.730942e-01
6.788153018267629e-03	9.392770e-01	9.671531e-01
6.826896323793630e-03	8.458611e-01	9.169427e-01
6.866896323793448e-03	7.047165e-01	8.175359e-01
6.906896323793266e-03	5.197588e-01	6.700236e-01
6.946896323793084e-03	2.998890e-01	4.815013e-01
6.986896323792902e-03	5.726352e-02	2.617711e-01
7.026896323792720e-03	-1.934184e-01	2.290368e-02
7.066896323792538e-03	-4.358118e-01	-2.210711e-01
7.106896323792355e-03	-6.532156e-01	-4.548896e-01
7.146896323792173e-03	-8.300333e-01	-6.630958e-01
7.186896323791991e-03	-9.575134e-01	-8.349742e-01
7.216361861640763e-03	-1.015817e+00	-9.326304e-01
7.232832276373724e-03	-1.031093e+00	-9.703877e-01
7.247918427581101e-03	-1.032504e+00	-9.896145e-01
7.264226280818242e-03	-1.021346e+00	-9.954861e-01
7.288153018267796e-03	-9.812480e-01	-9.848753e-01
7.326896323793797e-03	-8.707222e-01	-9.357061e-01
7.366896323793615e-03	-7.069144e-01	-8.391206e-01
7.406896323793433e-03	-4.986773e-01	-6.857849e-01
7.446896323793251e-03	-2.606263e-01	-4.821844e-01
7.486896323793069e-03	-9.472628e-03	-2.454914e-01
7.526896323792887e-03	2.380198e-01	5.645829e-03
7.566896323792704e-03	4.663393e-01	2.534723e-01
7.606896323792522e-03	6.622387e-01	4.815822e-01
7.646896323792340e-03	8.153980e-01	6.758742e-01
7.686896323792158e-03	9.222474e-01	8.289464e-01
7.716361861640930e-03	9.698239e-01	9.121463e-01
7.732832276373891e-03	9.818879e-01	9.442928e-01
7.747918427580824e-03	9.825901e-01	9.632456e-01
7.764226280817965e-03	9.729714e-01	9.730633e-01
7.788153018267518e-03	9.392333e-01	9.671225e-01
7.826896323793520e-03	8.458179e-01	9.169124e-01
7.866896323793338e-03	7.046736e-01	8.175058e-01
7.906896323793156e-03	5.197162e-01	6.699939e-01
7.946896323792974e-03	2.998468e-01	4.814718e-01
7.986896323792791e-03	5.722155e-02	2.617418e-01
8.026896323792609e-03	-1.934600e-01	2.287472e-02
8.066896323792427e-03	-4.358532e-01	-2.210998e-01
8.106896323792245e-03	-6.532568e-01	-4.549181e-01
8.146896323792063e-03	-8.300741e-01	-6.631241e-01
8.186896323791881e-03	-9.575538e-01	-8.350022e-01
8.216361861640653e-03	-1.015857e+00	-9.326590e-01
8.232832276374058e-03	-1.031133e+00	-9.704182e-01
8.247918427581435e-03	-1.032543e+00	-9.896481e-01
8.264226280818132e-03	-1.021386e+00	-9.955224e-01
8.288153018267685e-03	-9.812871e-01	-9.849132e-01
8.326896323793243e-03	-8.707607e-01	-9.357426e-01
8.366896323793060e-03	-7.069525e-01	-8.391529e-01
8.406896323792878e-03	-4.987147e-01	-6.858132e-01
8.446896323792696e-03	-2.606629e-01	-4.822106e-01
8.486896323792514e-03	-9.508629e-03	-2.455166e-01
8.526896323792332e-03	2.379845e-01	5.621163e-03
8.566896323792150e-03	4.663046e-01	2.534482e-01
8.606896323791968e-03	6.622046e-01	4.815584e-01
8.646896323791786e-03	8.153644e-01	6.758509e-01
8.686896323791604e-03	9.222143e-01	8.289234e-01
8.716361861640820e-03	9.697911e-01	9.121236e-01
8.732832276373781e-03	9.818553e-01	9.442703e-01
8.747918427581602e-03	9.825577e-01	9.632232e-01
8.764226280817855e-03	9.729392e-01	9.730410e-01
8.788153018267408e-03	9.392012e-01	9.671003e-01
8.826896323792521e-03	8.457861e-01	9.168906e-01
8.866896323792339e-03	7.046421e-01	8.174841e-01
8.906896323792157e-03	5.196850e-01	6.699724e-01
8.946896323791975e-03	2.998158e-01	4.814506e-01
8.986896323791793e-03	5.719076e-02	2.617207e-01
9.026896323791611e-03	-1.934906e-01	2.285377e-02
9.066896323791429e-03	-4.358836e-01	-2.211206e-01
9.106896323791247e-03	-6.532869e-01	-4.549388e-01
9.146896323791065e-03	-8.301040e-01	-6.631445e-01
9.186896323790883e-03	-9.575834e-01	-8.350226e-01
9.216361861640543e-03	-1.015887e+00	-9.326797e-01
9.232832276373504e-03	-1.031162e+00	-9.704403e-01
9.247918427580881e-03	-1.032572e+00	-9.896724e-01
9.264226280817578e-03	-1.021415e+00	-9.955487e-01
9.288153018266687e-03	-9.813158e-01	-9.849406e-01
9.326896323791800e-03	-8.707891e-01	-9.357690e-01
9.366896323791618e-03	-7.069802e-01	-8.391762e-01
9.406896323791436e-03	-4.987420e-01	-6.858337e-01
9.446896323791254e-03	-2.606898e-01	-4.822296e-01
9.486896323791072e-03	-9.535043e-03	-2.455349e-01
9.526896323790890e-03	2.379585e-01	5.603314e-03
9.566896323790708e-03	4.662791e-01	2.534307e-01
9.606896323790526e-03	6.621795e-01	4.815413e-01
9.646896323790344e-03	8.153397e-01	6.758341e-01
9.686896323790162e-03	9.221900e-01	8.289068e-01
9.716361861640266e-03	9.697670e-01	9.121073e-01
9.732832276373227e-03	9.818314e-01	9.442540e-01
9.747918427581048e-03	9.825339e-01	9.632070e-01
9.764226280817745e-03	9.729155e-01	9.730249e-01
9.788153018266854e-03	9.391776e-01	9.670843e-01
9.826896323791967e-03	8.457628e-01	9.168747e-01
9.866896323791785e-03	7.046190e-01	8.174685e-01
9.906896323791603e-03	5.196621e-01	6.699569e-01
9.946896323791421e-03	2.997930e-01	4.814351e-01
9.986896323791239e-03	5.829033e-02	2.646507e-01
1.000000000000023e-02	-2.406538e-02	1.884171e-01
