Circuit: * C:\Users\PC\Desktop\MATERIAS FIUBA\Introduccion a los dispositivos electronicos\tp3_amp\spice\pruebas_amps.asc

WARNING: Node NC_01 is floating.
WARNING: Node NC_02 is floating.
WARNING: Node N005 is floating.

WARNING: Less than two connections to node nc_01.  This node is used by c1.
WARNING: Less than two connections to node nc_02.  This node is used by c2.
WARNING: Less than two connections to node n005.  This node is used by c7.
WARNING: Less than two connections to node nc_03.  This node is used by r18.
Direct Newton iteration for .op point succeeded.
Semiconductor Device Operating Points:
                        --- VDMOSFET Transistors ---
Name:          m4
Model:       irfp240
Id:          5.95e-01
Vgs:         4.49e+00
Vds:         1.86e+00
Vth:         4.00e+00
Gm:          2.46e+00
Gds:         1.69e-02
Cgs:         1.25e-09
Cgd:         1.34e-09
Cbody:       7.40e-10

                        --- MOSFET Transistors ---
Name:          m1          m3          m2          m5
Model:     my_irfp240  my_irfp240  my_irfp240  my_irfp240
Id:          8.91e-01    8.96e-01    5.82e-01    5.82e-01
Vgs:         4.61e+00    4.61e+00    4.48e+00    4.48e+00
Vds:         1.87e+00    1.83e+00    3.18e+00    3.18e+00
Vbs:         0.00e+00    0.00e+00    0.00e+00    0.00e+00
Vth:         3.97e+00    3.97e+00    3.97e+00    3.97e+00
Vdsat:       6.35e-01    6.37e-01    5.04e-01    5.04e-01
Gm:          2.81e+00    2.81e+00    2.31e+00    2.31e+00
Gds:         2.43e-02    2.45e-02    1.53e-02    1.53e-02
Gmb:         0.00e+00    0.00e+00    0.00e+00    0.00e+00
Cbd:         0.00e+00    0.00e+00    0.00e+00    0.00e+00
Cbs:         0.00e+00    0.00e+00    0.00e+00    0.00e+00
Cgsov:       0.00e+00    0.00e+00    0.00e+00    0.00e+00
Cgdov:       0.00e+00    0.00e+00    0.00e+00    0.00e+00
Cgbov:       0.00e+00    0.00e+00    0.00e+00    0.00e+00
Cgs:         0.00e+00    0.00e+00    0.00e+00    0.00e+00
Cgd:         0.00e+00    0.00e+00    0.00e+00    0.00e+00
Cgb:         0.00e+00    0.00e+00    0.00e+00    0.00e+00



Date: Sat Jun 15 19:00:57 2024
Total elapsed time: 0.053 seconds.

tnom = 27
temp = 27
method = trap
totiter = 5
traniter = 0
tranpoints = 0
accept = 0
rejected = 0
matrix size = 42
fillins = 0
solver = Normal
Avg thread counts: 8.0/0.0/8.0/8.0
Matrix Compiler1: 1.40 KB object code size
Matrix Compiler2: 2.72 KB object code size
